# vsim -c -voptargs="+acc" -assertdebug -sva -coverage -l simulation.log -do "log -r /*; coverage save -onexit -assert -directive -cvg -codeAll coverage.ucdb; run -all; exit" -wlf waveform.wlf -L work "+UVM_TESTNAME=axi_fifo_base_test" "+UVM_VERBOSITY=UVM_NONE" work.top 
# Start time: 13:29:55 on Aug 15,2026
# ** Note: (vsim-3812) Design is being optimized...
# ** Note: (vopt-143) Recognized 1 FSM in module "AXI_MASTER_WRITE_CONTROL(fast)".
# ** Note: (vopt-143) Recognized 1 FSM in module "my_decoder(fast)".
# ** Note: (vopt-143) Recognized 1 FSM in module "AXI_MASTER_READ_Control(fast)".
# ** Note: (vopt-143) Recognized 1 FSM in module "write_response_handler(fast)".
# ** Warning: ./cpu/cpu_sequence_item/cpu_sequence_item.sv(123): (vopt-2697) MSB of part-select into 'wdata' is out of bounds.
# ** Warning: ./cpu/cpu_sequence_item/cpu_sequence_item.sv(123): (vopt-2697) LSB of part-select into 'wdata' is out of bounds.
# ** Warning: ./cpu/cpu_sequence_item/cpu_sequence_item.sv(124): (vopt-2697) MSB of part-select into 'wdata' is out of bounds.
# ** Warning: ./cpu/cpu_sequence_item/cpu_sequence_item.sv(128): (vopt-2697) MSB of part-select into 'wdata' is out of bounds.
# ** Warning: ./cpu/cpu_sequence_item/cpu_sequence_item.sv(128): (vopt-2697) LSB of part-select into 'wdata' is out of bounds.
# ** Warning: ./cpu/cpu_sequence_item/cpu_sequence_item.sv(129): (vopt-2697) MSB of part-select into 'wdata' is out of bounds.
# ** Warning: ./cpu/cpu_sequence_item/cpu_sequence_item.sv(129): (vopt-2697) LSB of part-select into 'wdata' is out of bounds.
# ** Warning: ./cpu/cpu_sequence_item/cpu_sequence_item.sv(130): (vopt-2697) MSB of part-select into 'wdata' is out of bounds.
# ** Warning: ./cpu/cpu_sequence_item/cpu_sequence_item.sv(134): (vopt-2697) MSB of part-select into 'wdata' is out of bounds.
# ** Warning: ./cpu/cpu_sequence_item/cpu_sequence_item.sv(134): (vopt-2697) LSB of part-select into 'wdata' is out of bounds.
# ** Warning: ./cpu/cpu_sequence_item/cpu_sequence_item.sv(135): (vopt-2697) MSB of part-select into 'wdata' is out of bounds.
# ** Warning: ./cpu/cpu_sequence_item/cpu_sequence_item.sv(135): (vopt-2697) LSB of part-select into 'wdata' is out of bounds.
# ** Warning: ./cpu/cpu_sequence_item/cpu_sequence_item.sv(136): (vopt-2697) MSB of part-select into 'wdata' is out of bounds.
# ** Warning: ./cpu/cpu_sequence_item/cpu_sequence_item.sv(136): (vopt-2697) LSB of part-select into 'wdata' is out of bounds.
# ** Warning: ./cpu/cpu_sequence_item/cpu_sequence_item.sv(137): (vopt-2697) MSB of part-select into 'wdata' is out of bounds.
# ** Warning: ./cpu/cpu_sequence_item/cpu_sequence_item.sv(137): (vopt-2697) LSB of part-select into 'wdata' is out of bounds.
# ** Warning: ./cpu/cpu_sequence_item/cpu_sequence_item.sv(138): (vopt-2697) MSB of part-select into 'wdata' is out of bounds.
# ** Warning: ./cpu/cpu_sequence_item/cpu_sequence_item.sv(143): (vopt-2697) MSB of part-select into 'wdata' is out of bounds.
# ** Warning: ./cpu/cpu_sequence_item/cpu_sequence_item.sv(143): (vopt-2697) LSB of part-select into 'wdata' is out of bounds.
# ** Warning: ./cpu/cpu_sequence_item/cpu_sequence_item.sv(146): (vopt-2697) MSB of part-select into 'wdata' is out of bounds.
# ** Warning: ./cpu/cpu_sequence_item/cpu_sequence_item.sv(146): (vopt-2697) LSB of part-select into 'wdata' is out of bounds.
# ** Warning: ./cpu/cpu_sequence_item/cpu_sequence_item.sv(147): (vopt-2697) MSB of part-select into 'wdata' is out of bounds.
# ** Warning: ./cpu/cpu_sequence_item/cpu_sequence_item.sv(147): (vopt-2697) LSB of part-select into 'wdata' is out of bounds.
# ** Warning: ./cpu/cpu_sequence_item/cpu_sequence_item.sv(148): (vopt-2697) MSB of part-select into 'wdata' is out of bounds.
# ** Warning: ./cpu/cpu_sequence_item/cpu_sequence_item.sv(148): (vopt-2697) LSB of part-select into 'wdata' is out of bounds.
# ** Warning: ./cpu/cpu_sequence_item/cpu_sequence_item.sv(149): (vopt-2697) MSB of part-select into 'wdata' is out of bounds.
# ** Warning: ./cpu/cpu_sequence_item/cpu_sequence_item.sv(149): (vopt-2697) LSB of part-select into 'wdata' is out of bounds.
# ** Warning: ./cpu/cpu_sequence_item/cpu_sequence_item.sv(150): (vopt-2697) MSB of part-select into 'wdata' is out of bounds.
# ** Warning: ./cpu/cpu_sequence_item/cpu_sequence_item.sv(150): (vopt-2697) LSB of part-select into 'wdata' is out of bounds.
# ** Warning: ./cpu/cpu_sequence_item/cpu_sequence_item.sv(151): (vopt-2697) MSB of part-select into 'wdata' is out of bounds.
# ** Warning: ./cpu/cpu_sequence_item/cpu_sequence_item.sv(151): (vopt-2697) LSB of part-select into 'wdata' is out of bounds.
# ** Warning: ./cpu/cpu_sequence_item/cpu_sequence_item.sv(152): (vopt-2697) MSB of part-select into 'wdata' is out of bounds.
# ** Warning: ./cpu/cpu_sequence_item/cpu_sequence_item.sv(152): (vopt-2697) LSB of part-select into 'wdata' is out of bounds.
# ** Warning: ./cpu/cpu_sequence_item/cpu_sequence_item.sv(155): (vopt-2697) MSB of part-select into 'wdata' is out of bounds.
# //  Questa Sim
# //  Version 10.6c linux Jul 25 2017
# //
# //  Copyright 1991-2017 Mentor Graphics Corporation
# //  All Rights Reserved.
# //
# //  QuestaSim and its associated documentation contain trade
# //  secrets and commercial or financial information that are the property of
# //  Mentor Graphics Corporation and are privileged, confidential,
# //  and exempt from disclosure under the Freedom of Information Act,
# //  5 U.S.C. Section 552. Furthermore, this information
# //  is prohibited from disclosure under the Trade Secrets Act,
# //  18 U.S.C. Section 1905.
# //
# Loading sv_std.std
# Loading work.fifo_interface(fast)
# Loading mtiUvm.uvm_pkg
# Loading work.cpu_sequence_item_pkg(fast)
# Loading work.cpu_passive_agent_pkg(fast)
# Loading work.cpu_active_agent_pkg(fast)
# Loading work.cpu_pkg(fast)
# Loading work.axi4_slave_driver_bfm(fast)
# Loading work.axi4_slave_monitor_bfm(fast)
# Loading work.axi4_globals_pkg(fast)
# Loading work.axi4_slave_pkg(fast)
# Loading work.axi_fifo_pkg(fast)
# Loading work.cpu_sequence_pkg(fast)
# Loading work.axi_sequence_pkg(fast)
# Loading work.axi_fifo_virtual_sequence_pkg(fast)
# Loading work.axi_fifo_test_pkg(fast)
# Loading work.axi_fifo_top_sv_unit(fast)
# Loading work.top(fast)
# Loading work.axi4_if_sv_unit(fast)
# Loading work.axi4_if(fast)
# Loading work.fifo_interface(fast)
# Loading work.axi4_slave_agent_bfm(fast)
# Loading work.axi4_slave_driver_bfm_sv_unit(fast)
# Loading work.axi4_slave_driver_bfm(fast)
# Loading work.axi4_slave_monitor_bfm_sv_unit(fast)
# Loading work.axi4_slave_monitor_bfm(fast)
# Loading work.Top_Module_AXI4(fast)
# Loading work.design_fifo(fast)
# Loading work.sync_fifo(fast)
# Loading work.my_decoder(fast)
# Loading work.write_response_handler(fast)
# Loading work.AXI_Master(fast)
# Loading work.AXI_MASTER_WRITE_CONTROL(fast)
# Loading work.AXI_MASTER_READ_Control(fast)
# Loading mtiUvm.questa_uvm_pkg(fast)
# Loading work.axi4_if(fast)
# Loading /tools/mentor/questasim_10.6c/questasim/uvm-1.1d/linux/uvm_dpi.so
# log -r /*
#  coverage save -onexit -assert -directive -cvg -codeAll coverage.ucdb
#  run -all
# ----------------------------------------------------------------
# UVM-1.1d
# (C) 2007-2013 Mentor Graphics Corporation
# (C) 2007-2013 Cadence Design Systems, Inc.
# (C) 2006-2013 Synopsys, Inc.
# (C) 2011-2013 Cypress Semiconductor Corp.
# ----------------------------------------------------------------
# 
#   ***********       IMPORTANT RELEASE NOTES         ************
# 
#   You are using a version of the UVM library that has been compiled
#   with `UVM_NO_DEPRECATED undefined.
#   See http://www.eda.org/svdb/view.php?id=3313 for more details.
# 
#   You are using a version of the UVM library that has been compiled
#   with `UVM_OBJECT_MUST_HAVE_CONSTRUCTOR undefined.
#   See http://www.eda.org/svdb/view.php?id=3770 for more details.
# 
#       (Specify +UVM_NO_RELNOTES to turn off this notice)
# 
# ** Warning: (vsim-8522) The number of coverpoint bins is zero for the coverpoint 'W_CHANNEL' of covergroup instance '\/cpu_pkg::cpu_subscriber::act_cov '. All the user defined bins in the coverpoint are empty bins and hence it would not contribute towards the overall coverage result.
#    Time: 0 ps  Iteration: 7  Region: /uvm_pkg::uvm_phase::m_run_phases
# ** Warning: (vsim-8522) The number of coverpoint bins is zero for the coverpoint 'R_CHANNEL' of covergroup instance '\/cpu_pkg::cpu_subscriber::pas_cov '. All the user defined bins in the coverpoint are empty bins and hence it would not contribute towards the overall coverage result.
#    Time: 0 ps  Iteration: 7  Region: /uvm_pkg::uvm_phase::m_run_phases
# ** Warning: (vsim-8474) ./axi_avip/hvl_top/slave/axi4_slave_coverage.sv(34): A higher value '31' is found in bin 'AWLEN_32' of Coverpoint 'AWLEN_CP'. It is invalid and will be ignored.
#    Time: 0 ps  Iteration: 7  Region: /uvm_pkg::uvm_phase::m_run_phases
# ** Warning: (vsim-8549) After dropping the illegal, ignore or invalid values, the values list associated with scalar bin 'AWLEN_32' in Coverpoint 'AWLEN_CP' of Covergroup instance '\/axi4_slave_pkg::axi4_slave_coverage::axi4_slave_covergroup ' has converged to empty list. The bin will be taken out of coverage calculation.
#    Time: 0 ps  Iteration: 7  Region: /uvm_pkg::uvm_phase::m_run_phases
# ** Warning: (vsim-8474) ./axi_avip/hvl_top/slave/axi4_slave_coverage.sv(35): A higher value '63' is found in bin 'AWLEN_64' of Coverpoint 'AWLEN_CP'. It is invalid and will be ignored.
#    Time: 0 ps  Iteration: 7  Region: /uvm_pkg::uvm_phase::m_run_phases
# ** Warning: (vsim-8549) After dropping the illegal, ignore or invalid values, the values list associated with scalar bin 'AWLEN_64' in Coverpoint 'AWLEN_CP' of Covergroup instance '\/axi4_slave_pkg::axi4_slave_coverage::axi4_slave_covergroup ' has converged to empty list. The bin will be taken out of coverage calculation.
#    Time: 0 ps  Iteration: 7  Region: /uvm_pkg::uvm_phase::m_run_phases
# ** Warning: (vsim-8474) ./axi_avip/hvl_top/slave/axi4_slave_coverage.sv(36): A higher value '127' is found in bin 'AWLEN_128' of Coverpoint 'AWLEN_CP'. It is invalid and will be ignored.
#    Time: 0 ps  Iteration: 7  Region: /uvm_pkg::uvm_phase::m_run_phases
# ** Warning: (vsim-8549) After dropping the illegal, ignore or invalid values, the values list associated with scalar bin 'AWLEN_128' in Coverpoint 'AWLEN_CP' of Covergroup instance '\/axi4_slave_pkg::axi4_slave_coverage::axi4_slave_covergroup ' has converged to empty list. The bin will be taken out of coverage calculation.
#    Time: 0 ps  Iteration: 7  Region: /uvm_pkg::uvm_phase::m_run_phases
# ** Warning: (vsim-8474) ./axi_avip/hvl_top/slave/axi4_slave_coverage.sv(37): A higher value '255' is found in bin 'AWLEN_256' of Coverpoint 'AWLEN_CP'. It is invalid and will be ignored.
#    Time: 0 ps  Iteration: 7  Region: /uvm_pkg::uvm_phase::m_run_phases
# ** Warning: (vsim-8549) After dropping the illegal, ignore or invalid values, the values list associated with scalar bin 'AWLEN_256' in Coverpoint 'AWLEN_CP' of Covergroup instance '\/axi4_slave_pkg::axi4_slave_coverage::axi4_slave_covergroup ' has converged to empty list. The bin will be taken out of coverage calculation.
#    Time: 0 ps  Iteration: 7  Region: /uvm_pkg::uvm_phase::m_run_phases
# ** Warning: (vsim-8474) ./axi_avip/hvl_top/slave/axi4_slave_coverage.sv(85): A higher value '31' is found in bin 'ARLEN_32' of Coverpoint 'ARLEN_CP'. It is invalid and will be ignored.
#    Time: 0 ps  Iteration: 7  Region: /uvm_pkg::uvm_phase::m_run_phases
# ** Warning: (vsim-8549) After dropping the illegal, ignore or invalid values, the values list associated with scalar bin 'ARLEN_32' in Coverpoint 'ARLEN_CP' of Covergroup instance '\/axi4_slave_pkg::axi4_slave_coverage::axi4_slave_covergroup ' has converged to empty list. The bin will be taken out of coverage calculation.
#    Time: 0 ps  Iteration: 7  Region: /uvm_pkg::uvm_phase::m_run_phases
# ** Warning: (vsim-8474) ./axi_avip/hvl_top/slave/axi4_slave_coverage.sv(86): A higher value '63' is found in bin 'ARLEN_64' of Coverpoint 'ARLEN_CP'. It is invalid and will be ignored.
#    Time: 0 ps  Iteration: 7  Region: /uvm_pkg::uvm_phase::m_run_phases
# ** Warning: (vsim-8549) After dropping the illegal, ignore or invalid values, the values list associated with scalar bin 'ARLEN_64' in Coverpoint 'ARLEN_CP' of Covergroup instance '\/axi4_slave_pkg::axi4_slave_coverage::axi4_slave_covergroup ' has converged to empty list. The bin will be taken out of coverage calculation.
#    Time: 0 ps  Iteration: 7  Region: /uvm_pkg::uvm_phase::m_run_phases
# ** Warning: (vsim-8474) ./axi_avip/hvl_top/slave/axi4_slave_coverage.sv(87): A higher value '127' is found in bin 'ARLEN_128' of Coverpoint 'ARLEN_CP'. It is invalid and will be ignored.
#    Time: 0 ps  Iteration: 7  Region: /uvm_pkg::uvm_phase::m_run_phases
# ** Warning: (vsim-8549) After dropping the illegal, ignore or invalid values, the values list associated with scalar bin 'ARLEN_128' in Coverpoint 'ARLEN_CP' of Covergroup instance '\/axi4_slave_pkg::axi4_slave_coverage::axi4_slave_covergroup ' has converged to empty list. The bin will be taken out of coverage calculation.
#    Time: 0 ps  Iteration: 7  Region: /uvm_pkg::uvm_phase::m_run_phases
# ** Warning: (vsim-8474) ./axi_avip/hvl_top/slave/axi4_slave_coverage.sv(88): A higher value '255' is found in bin 'ARLEN_256' of Coverpoint 'ARLEN_CP'. It is invalid and will be ignored.
#    Time: 0 ps  Iteration: 7  Region: /uvm_pkg::uvm_phase::m_run_phases
# ** Warning: (vsim-8549) After dropping the illegal, ignore or invalid values, the values list associated with scalar bin 'ARLEN_256' in Coverpoint 'ARLEN_CP' of Covergroup instance '\/axi4_slave_pkg::axi4_slave_coverage::axi4_slave_covergroup ' has converged to empty list. The bin will be taken out of coverage calculation.
#    Time: 0 ps  Iteration: 7  Region: /uvm_pkg::uvm_phase::m_run_phases
# ** Warning: (vsim-8474) ./axi_avip/hvl_top/slave/axi4_slave_coverage.sv(141): A higher value '31' is found in bin 'ignr' of Cross 'AWLENGTH_CP_X_AWSIZE_X_AWBURST'. It is invalid and will be ignored.
#    Time: 0 ps  Iteration: 7  Region: /uvm_pkg::uvm_phase::m_run_phases
# ** Warning: (vsim-8474) ./axi_avip/hvl_top/slave/axi4_slave_coverage.sv(141): A higher value '63' is found in bin 'ignr' of Cross 'AWLENGTH_CP_X_AWSIZE_X_AWBURST'. It is invalid and will be ignored.
#    Time: 0 ps  Iteration: 7  Region: /uvm_pkg::uvm_phase::m_run_phases
# ** Warning: (vsim-8474) ./axi_avip/hvl_top/slave/axi4_slave_coverage.sv(141): A higher value '127' is found in bin 'ignr' of Cross 'AWLENGTH_CP_X_AWSIZE_X_AWBURST'. It is invalid and will be ignored.
#    Time: 0 ps  Iteration: 7  Region: /uvm_pkg::uvm_phase::m_run_phases
# ** Warning: (vsim-8474) ./axi_avip/hvl_top/slave/axi4_slave_coverage.sv(141): A higher value '255' is found in bin 'ignr' of Cross 'AWLENGTH_CP_X_AWSIZE_X_AWBURST'. It is invalid and will be ignored.
#    Time: 0 ps  Iteration: 7  Region: /uvm_pkg::uvm_phase::m_run_phases
# ** Warning: (vsim-8559) After removing the invalid values, the intersect values list associated with bin 'ignr' in Cross 'AWLENGTH_CP_X_AWSIZE_X_AWBURST' of Covergroup instance '\/axi4_slave_pkg::axi4_slave_coverage::axi4_slave_covergroup ' has converged to empty list.
#    Time: 0 ps  Iteration: 7  Region: /uvm_pkg::uvm_phase::m_run_phases
# ** Warning: (vsim-8560) On evaluating the select expression of Cross bin 'AWLENGTH_CP_X_AWSIZE_X_AWBURST.ignr' in Covergroup instance '\/axi4_slave_pkg::axi4_slave_coverage::axi4_slave_covergroup ', the bin is found to be empty since no cross products are selected.
#    Time: 0 ps  Iteration: 7  Region: /uvm_pkg::uvm_phase::m_run_phases
# ** Warning: (vsim-8474) ./axi_avip/hvl_top/slave/axi4_slave_coverage.sv(144): A higher value '31' is found in bin 'ignr' of Cross 'ARLENGTH_CP_X_ARSIZE_X_ARBURST'. It is invalid and will be ignored.
#    Time: 0 ps  Iteration: 7  Region: /uvm_pkg::uvm_phase::m_run_phases
# ** Warning: (vsim-8474) ./axi_avip/hvl_top/slave/axi4_slave_coverage.sv(144): A higher value '63' is found in bin 'ignr' of Cross 'ARLENGTH_CP_X_ARSIZE_X_ARBURST'. It is invalid and will be ignored.
#    Time: 0 ps  Iteration: 7  Region: /uvm_pkg::uvm_phase::m_run_phases
# ** Warning: (vsim-8474) ./axi_avip/hvl_top/slave/axi4_slave_coverage.sv(144): A higher value '127' is found in bin 'ignr' of Cross 'ARLENGTH_CP_X_ARSIZE_X_ARBURST'. It is invalid and will be ignored.
#    Time: 0 ps  Iteration: 7  Region: /uvm_pkg::uvm_phase::m_run_phases
# ** Warning: (vsim-8474) ./axi_avip/hvl_top/slave/axi4_slave_coverage.sv(144): A higher value '255' is found in bin 'ignr' of Cross 'ARLENGTH_CP_X_ARSIZE_X_ARBURST'. It is invalid and will be ignored.
#    Time: 0 ps  Iteration: 7  Region: /uvm_pkg::uvm_phase::m_run_phases
# ** Warning: (vsim-8559) After removing the invalid values, the intersect values list associated with bin 'ignr' in Cross 'ARLENGTH_CP_X_ARSIZE_X_ARBURST' of Covergroup instance '\/axi4_slave_pkg::axi4_slave_coverage::axi4_slave_covergroup ' has converged to empty list.
#    Time: 0 ps  Iteration: 7  Region: /uvm_pkg::uvm_phase::m_run_phases
# ** Warning: (vsim-8560) On evaluating the select expression of Cross bin 'ARLENGTH_CP_X_ARSIZE_X_ARBURST.ignr' in Covergroup instance '\/axi4_slave_pkg::axi4_slave_coverage::axi4_slave_covergroup ', the bin is found to be empty since no cross products are selected.
#    Time: 0 ps  Iteration: 7  Region: /uvm_pkg::uvm_phase::m_run_phases
# ---------------------------------------------------------------------------------------------------
# Name                                             Type                                   Size  Value
# ---------------------------------------------------------------------------------------------------
# uvm_test_top                                     axi_fifo_base_test                     -     @486 
#   env                                            axi_fifo_environment                   -     @493 
#     axi_fifo_scoreboard                          axi_fifo_scoreboard                    -     @554 
#       act_scb_port                               uvm_analysis_imp_act_imp_scb           -     @674 
#       axi_slave_read_address_port                uvm_analysis_imp_slave_read_address    -     @714 
#       axi_slave_read_data_port                   uvm_analysis_imp_slave_read_data       -     @722 
#       axi_slave_write_address_port               uvm_analysis_imp_slave_write_address   -     @690 
#       axi_slave_write_data_port                  uvm_analysis_imp_slave_write_data      -     @698 
#       axi_slave_write_response_port              uvm_analysis_imp_slave_write_response  -     @706 
#       pas_scb_port                               uvm_analysis_imp_pas_imp_scb           -     @682 
#     axi_sagt                                     axi4_slave_agent                       -     @502 
#       axi4_slave_cov_h                           axi4_slave_coverage                    -     @1426
#         analysis_imp                             uvm_analysis_imp                       -     @1433
#       axi4_slave_drv_proxy_h                     axi4_slave_driver_proxy                -     @731 
#         axi4_slave_read_addr_fifo_h              uvm_tlm_fifo #(T)                      -     @942 
#           get_ap                                 uvm_analysis_port                      -     @973 
#           get_peek_export                        uvm_get_peek_imp                       -     @957 
#           put_ap                                 uvm_analysis_port                      -     @965 
#           put_export                             uvm_put_imp                            -     @949 
#         axi4_slave_read_data_in_fifo_h           uvm_tlm_fifo #(T)                      -     @981 
#           get_ap                                 uvm_analysis_port                      -     @1012
#           get_peek_export                        uvm_get_peek_imp                       -     @996 
#           put_ap                                 uvm_analysis_port                      -     @1004
#           put_export                             uvm_put_imp                            -     @988 
#         axi4_slave_write_addr_fifo_h             uvm_tlm_fifo #(T)                      -     @786 
#           get_ap                                 uvm_analysis_port                      -     @817 
#           get_peek_export                        uvm_get_peek_imp                       -     @801 
#           put_ap                                 uvm_analysis_port                      -     @809 
#           put_export                             uvm_put_imp                            -     @793 
#         axi4_slave_write_data_in_fifo_h          uvm_tlm_fifo #(T)                      -     @825 
#           get_ap                                 uvm_analysis_port                      -     @856 
#           get_peek_export                        uvm_get_peek_imp                       -     @840 
#           put_ap                                 uvm_analysis_port                      -     @848 
#           put_export                             uvm_put_imp                            -     @832 
#         axi4_slave_write_data_out_fifo_h         uvm_tlm_fifo #(T)                      -     @903 
#           get_ap                                 uvm_analysis_port                      -     @934 
#           get_peek_export                        uvm_get_peek_imp                       -     @918 
#           put_ap                                 uvm_analysis_port                      -     @926 
#           put_export                             uvm_put_imp                            -     @910 
#         axi4_slave_write_response_fifo_h         uvm_tlm_fifo #(T)                      -     @864 
#           get_ap                                 uvm_analysis_port                      -     @895 
#           get_peek_export                        uvm_get_peek_imp                       -     @879 
#           put_ap                                 uvm_analysis_port                      -     @887 
#           put_export                             uvm_put_imp                            -     @871 
#         axi_read_rsp_port                        uvm_analysis_port                      -     @778 
#         axi_read_seq_item_port                   uvm_seq_item_pull_port                 -     @762 
#         axi_write_rsp_port                       uvm_analysis_port                      -     @770 
#         axi_write_seq_item_port                  uvm_seq_item_pull_port                 -     @754 
#         rsp_port                                 uvm_analysis_port                      -     @746 
#         seq_item_port                            uvm_seq_item_pull_port                 -     @738 
#       axi4_slave_mon_proxy_h                     axi4_slave_monitor_proxy               -     @1238
#         axi4_slave_read_address_analysis_port    uvm_analysis_port                      -     @1245
#         axi4_slave_read_data_analysis_port       uvm_analysis_port                      -     @1253
#         axi4_slave_read_fifo_h                   uvm_tlm_analysis_fifo #(T)             -     @1379
#           analysis_export                        uvm_analysis_imp                       -     @1418
#           get_ap                                 uvm_analysis_port                      -     @1410
#           get_peek_export                        uvm_get_peek_imp                       -     @1394
#           put_ap                                 uvm_analysis_port                      -     @1402
#           put_export                             uvm_put_imp                            -     @1386
#         axi4_slave_write_address_analysis_port   uvm_analysis_port                      -     @1261
#         axi4_slave_write_address_fifo_h          uvm_tlm_analysis_fifo #(T)             -     @1285
#           analysis_export                        uvm_analysis_imp                       -     @1324
#           get_ap                                 uvm_analysis_port                      -     @1316
#           get_peek_export                        uvm_get_peek_imp                       -     @1300
#           put_ap                                 uvm_analysis_port                      -     @1308
#           put_export                             uvm_put_imp                            -     @1292
#         axi4_slave_write_data_analysis_port      uvm_analysis_port                      -     @1269
#         axi4_slave_write_data_fifo_h             uvm_tlm_analysis_fifo #(T)             -     @1332
#           analysis_export                        uvm_analysis_imp                       -     @1371
#           get_ap                                 uvm_analysis_port                      -     @1363
#           get_peek_export                        uvm_get_peek_imp                       -     @1347
#           put_ap                                 uvm_analysis_port                      -     @1355
#           put_export                             uvm_put_imp                            -     @1339
#         axi4_slave_write_response_analysis_port  uvm_analysis_port                      -     @1277
#       axi4_slave_read_seqr_h                     axi4_slave_read_sequencer              -     @1129
#         rsp_export                               uvm_analysis_export                    -     @1136
#         seq_item_export                          uvm_seq_item_pull_imp                  -     @1230
#         arbitration_queue                        array                                  0     -    
#         lock_queue                               array                                  0     -    
#         num_last_reqs                            integral                               32    'd1  
#         num_last_rsps                            integral                               32    'd1  
#       axi4_slave_write_seqr_h                    axi4_slave_write_sequencer             -     @1020
#         rsp_export                               uvm_analysis_export                    -     @1027
#         seq_item_export                          uvm_seq_item_pull_imp                  -     @1121
#         arbitration_queue                        array                                  0     -    
#         lock_queue                               array                                  0     -    
#         num_last_reqs                            integral                               32    'd1  
#         num_last_rsps                            integral                               32    'd1  
#     cpu_active_agt                               cpu_active_agent                       -     @509 
#       a_mon_h                                    cpu_active_monitor                     -     @1586
#         a_mon_port                               uvm_analysis_port                      -     @1593
#       drv_h                                      cpu_driver                             -     @1454
#         rsp_port                                 uvm_analysis_port                      -     @1469
#         seq_item_port                            uvm_seq_item_pull_port                 -     @1461
#       sqr_h                                      cpu_sequencer                          -     @1477
#         rsp_export                               uvm_analysis_export                    -     @1484
#         seq_item_export                          uvm_seq_item_pull_imp                  -     @1578
#         arbitration_queue                        array                                  0     -    
#         lock_queue                               array                                  0     -    
#         num_last_reqs                            integral                               32    'd1  
#         num_last_rsps                            integral                               32    'd1  
#     cpu_passive_agt                              cpu_passive_agent                      -     @516 
#       cpu_pass_mon                               cpu_passive_monitor                    -     @1609
#         passive_mon_port                         uvm_analysis_port                      -     @1616
#     cpu_sub                                      cpu_subscriber                         -     @523 
#       analysis_imp                               uvm_analysis_imp                       -     @530 
#       subscriber_passive_monitor_port            uvm_analysis_imp_pas_mon_cg            -     @546 
#     vseqr                                        axi_fifo_virtual_sequencer             -     @561 
#       rsp_export                                 uvm_analysis_export                    -     @568 
#       seq_item_export                            uvm_seq_item_pull_imp                  -     @662 
#       arbitration_queue                          array                                  0     -    
#       lock_queue                                 array                                  0     -    
#       num_last_reqs                              integral                               32    'd1  
#       num_last_rsps                              integral                               32    'd1  
# ---------------------------------------------------------------------------------------------------
# 
# [1;32m[INFO][0m [1;36m(ID=AXI4_SLAVE_DRIVER_BFM)[0m [1;34m[time = 5000][0m SYSTEM RESET ACTIVATED
# [1;32m[INFO][0m [1;36m(ID=AXI4_SLAVE_DRIVER_BFM)[0m [1;34m[time = 15000][0m SYSTEM RESET DE-ACTIVATED
# [1;32m[INFO][0m [1;36m(ID=AXI4_SLAVE_DRIVER_BFM)[0m [1;34m[time = 15000][0m INSIDE WRITE DATA CHANNEL
# [1;32m[INFO][0m [1;36m(ID=axi_fifo_scoreboard)[0m [1;34m[time = 25000][0m  
# [1;32m[INFO][0m [1;36m(ID=axi_fifo_scoreboard)[0m [1;34m[time = 25000][0m ==============================================================
# [1;32m[INFO][0m [1;36m(ID=axi_fifo_scoreboard)[0m [1;34m[time = 25000][0m FIELD   | VALUE               
# [1;32m[INFO][0m [1;36m(ID=axi_fifo_scoreboard)[0m [1;34m[time = 25000][0m --------------------------------------------------------------
# [1;32m[INFO][0m [1;36m(ID=axi_fifo_scoreboard)[0m [1;34m[time = 25000][0m AW_ID   = 0 (0x0)
# [1;32m[INFO][0m [1;36m(ID=axi_fifo_scoreboard)[0m [1;34m[time = 25000][0m AWADDR  = 0x9e8d6468
# [1;32m[INFO][0m [1;36m(ID=axi_fifo_scoreboard)[0m [1;34m[time = 25000][0m AWLEN   = 3 (0x3)
# [1;32m[INFO][0m [1;36m(ID=axi_fifo_scoreboard)[0m [1;34m[time = 25000][0m AWSIZE  = 2 (0x2)
# [1;32m[INFO][0m [1;36m(ID=axi_fifo_scoreboard)[0m [1;34m[time = 25000][0m AWBURST = 1 (0x1)
# [1;32m[INFO][0m [1;36m(ID=axi_fifo_scoreboard)[0m [1;34m[time = 25000][0m AWLOCK  = 0 (0x0)
# [1;32m[INFO][0m [1;36m(ID=axi_fifo_scoreboard)[0m [1;34m[time = 25000][0m AWCACHE = 0 (0x0)
# [1;32m[INFO][0m [1;36m(ID=axi_fifo_scoreboard)[0m [1;34m[time = 25000][0m AWPROT  = 0 (0x0)
# [1;32m[INFO][0m [1;36m(ID=axi_fifo_scoreboard)[0m [1;34m[time = 25000][0m WSTRB   = 0xf
# [1;32m[INFO][0m [1;36m(ID=axi_fifo_scoreboard)[0m [1;34m[time = 25000][0m WDATA   = 0xe4d5e3bc
# [1;32m[INFO][0m [1;36m(ID=axi_fifo_scoreboard)[0m [1;34m[time = 25000][0m ==============================================================
# [1;32m[INFO][0m [1;36m(ID=axi_fifo_scoreboard)[0m [1;34m[time = 25000][0m  
# [1;32m[INFO][0m [1;36m(ID=axi_fifo_scoreboard)[0m [1;34m[time = 25000][0m EXPECTED W : BEAT=0 ID=0 ADDR=9e8d6468 DATA=e4d5e3bc STRB=f LAST=0
# [1;32m[INFO][0m [1;36m(ID=axi_fifo_scoreboard)[0m [1;34m[time = 25000][0m  
# [1;32m[INFO][0m [1;36m(ID=axi_fifo_scoreboard)[0m [1;34m[time = 25000][0m ==============================================================
# [1;32m[INFO][0m [1;36m(ID=axi_fifo_scoreboard)[0m [1;34m[time = 25000][0m                   REFERENCE MEMORY                            
# [1;32m[INFO][0m [1;36m(ID=axi_fifo_scoreboard)[0m [1;34m[time = 25000][0m ==============================================================
# [1;32m[INFO][0m [1;36m(ID=axi_fifo_scoreboard)[0m [1;34m[time = 25000][0m LANE     | ADDRESS      | DATA         | WSTRB   
# [1;32m[INFO][0m [1;36m(ID=axi_fifo_scoreboard)[0m [1;34m[time = 25000][0m --------------------------------------------------------------
# [1;32m[INFO][0m [1;36m(ID=axi_fifo_scoreboard)[0m [1;34m[time = 25000][0m 0        | 0x9e8d6468   | 0xbc         | 1
# [1;32m[INFO][0m [1;36m(ID=axi_fifo_scoreboard)[0m [1;34m[time = 25000][0m 1        | 0x9e8d6469   | 0xe3         | 1
# [1;32m[INFO][0m [1;36m(ID=axi_fifo_scoreboard)[0m [1;34m[time = 25000][0m 2        | 0x9e8d646a   | 0xd5         | 1
# [1;32m[INFO][0m [1;36m(ID=axi_fifo_scoreboard)[0m [1;34m[time = 25000][0m 3        | 0x9e8d646b   | 0xe4         | 1
# [1;32m[INFO][0m [1;36m(ID=axi_fifo_scoreboard)[0m [1;34m[time = 25000][0m ==============================================================
# [1;32m[INFO][0m [1;36m(ID=axi_fifo_scoreboard)[0m [1;34m[time = 25000][0m  
# [1;32m[INFO][0m [1;36m(ID=axi_fifo_scoreboard)[0m [1;34m[time = 25000][0m EXPECTED W : BEAT=1 ID=0 ADDR=9e8d646c DATA=e4d5e3bc STRB=f LAST=0
# [1;32m[INFO][0m [1;36m(ID=axi_fifo_scoreboard)[0m [1;34m[time = 25000][0m  
# [1;32m[INFO][0m [1;36m(ID=axi_fifo_scoreboard)[0m [1;34m[time = 25000][0m ==============================================================
# [1;32m[INFO][0m [1;36m(ID=axi_fifo_scoreboard)[0m [1;34m[time = 25000][0m                   REFERENCE MEMORY                            
# [1;32m[INFO][0m [1;36m(ID=axi_fifo_scoreboard)[0m [1;34m[time = 25000][0m ==============================================================
# [1;32m[INFO][0m [1;36m(ID=axi_fifo_scoreboard)[0m [1;34m[time = 25000][0m LANE     | ADDRESS      | DATA         | WSTRB   
# [1;32m[INFO][0m [1;36m(ID=axi_fifo_scoreboard)[0m [1;34m[time = 25000][0m --------------------------------------------------------------
# [1;32m[INFO][0m [1;36m(ID=axi_fifo_scoreboard)[0m [1;34m[time = 25000][0m 0        | 0x9e8d646c   | 0xbc         | 1
# [1;32m[INFO][0m [1;36m(ID=axi_fifo_scoreboard)[0m [1;34m[time = 25000][0m 1        | 0x9e8d646d   | 0xe3         | 1
# [1;32m[INFO][0m [1;36m(ID=axi_fifo_scoreboard)[0m [1;34m[time = 25000][0m 2        | 0x9e8d646e   | 0xd5         | 1
# [1;32m[INFO][0m [1;36m(ID=axi_fifo_scoreboard)[0m [1;34m[time = 25000][0m 3        | 0x9e8d646f   | 0xe4         | 1
# [1;32m[INFO][0m [1;36m(ID=axi_fifo_scoreboard)[0m [1;34m[time = 25000][0m ==============================================================
# [1;32m[INFO][0m [1;36m(ID=axi_fifo_scoreboard)[0m [1;34m[time = 25000][0m  
# [1;32m[INFO][0m [1;36m(ID=axi_fifo_scoreboard)[0m [1;34m[time = 25000][0m EXPECTED W : BEAT=2 ID=0 ADDR=9e8d6470 DATA=e4d5e3bc STRB=f LAST=0
# [1;32m[INFO][0m [1;36m(ID=axi_fifo_scoreboard)[0m [1;34m[time = 25000][0m  
# [1;32m[INFO][0m [1;36m(ID=axi_fifo_scoreboard)[0m [1;34m[time = 25000][0m ==============================================================
# [1;32m[INFO][0m [1;36m(ID=axi_fifo_scoreboard)[0m [1;34m[time = 25000][0m                   REFERENCE MEMORY                            
# [1;32m[INFO][0m [1;36m(ID=axi_fifo_scoreboard)[0m [1;34m[time = 25000][0m ==============================================================
# [1;32m[INFO][0m [1;36m(ID=axi_fifo_scoreboard)[0m [1;34m[time = 25000][0m LANE     | ADDRESS      | DATA         | WSTRB   
# [1;32m[INFO][0m [1;36m(ID=axi_fifo_scoreboard)[0m [1;34m[time = 25000][0m --------------------------------------------------------------
# [1;32m[INFO][0m [1;36m(ID=axi_fifo_scoreboard)[0m [1;34m[time = 25000][0m 0        | 0x9e8d6470   | 0xbc         | 1
# [1;32m[INFO][0m [1;36m(ID=axi_fifo_scoreboard)[0m [1;34m[time = 25000][0m 1        | 0x9e8d6471   | 0xe3         | 1
# [1;32m[INFO][0m [1;36m(ID=axi_fifo_scoreboard)[0m [1;34m[time = 25000][0m 2        | 0x9e8d6472   | 0xd5         | 1
# [1;32m[INFO][0m [1;36m(ID=axi_fifo_scoreboard)[0m [1;34m[time = 25000][0m 3        | 0x9e8d6473   | 0xe4         | 1
# [1;32m[INFO][0m [1;36m(ID=axi_fifo_scoreboard)[0m [1;34m[time = 25000][0m ==============================================================
# [1;32m[INFO][0m [1;36m(ID=axi_fifo_scoreboard)[0m [1;34m[time = 25000][0m  
# [1;32m[INFO][0m [1;36m(ID=axi_fifo_scoreboard)[0m [1;34m[time = 25000][0m EXPECTED W : BEAT=3 ID=0 ADDR=9e8d6474 DATA=e4d5e3bc STRB=f LAST=1
# [1;32m[INFO][0m [1;36m(ID=axi_fifo_scoreboard)[0m [1;34m[time = 25000][0m  
# [1;32m[INFO][0m [1;36m(ID=axi_fifo_scoreboard)[0m [1;34m[time = 25000][0m ==============================================================
# [1;32m[INFO][0m [1;36m(ID=axi_fifo_scoreboard)[0m [1;34m[time = 25000][0m                   REFERENCE MEMORY                            
# [1;32m[INFO][0m [1;36m(ID=axi_fifo_scoreboard)[0m [1;34m[time = 25000][0m ==============================================================
# [1;32m[INFO][0m [1;36m(ID=axi_fifo_scoreboard)[0m [1;34m[time = 25000][0m LANE     | ADDRESS      | DATA         | WSTRB   
# [1;32m[INFO][0m [1;36m(ID=axi_fifo_scoreboard)[0m [1;34m[time = 25000][0m --------------------------------------------------------------
# [1;32m[INFO][0m [1;36m(ID=axi_fifo_scoreboard)[0m [1;34m[time = 25000][0m 0        | 0x9e8d6474   | 0xbc         | 1
# [1;32m[INFO][0m [1;36m(ID=axi_fifo_scoreboard)[0m [1;34m[time = 25000][0m 1        | 0x9e8d6475   | 0xe3         | 1
# [1;32m[INFO][0m [1;36m(ID=axi_fifo_scoreboard)[0m [1;34m[time = 25000][0m 2        | 0x9e8d6476   | 0xd5         | 1
# [1;32m[INFO][0m [1;36m(ID=axi_fifo_scoreboard)[0m [1;34m[time = 25000][0m 3        | 0x9e8d6477   | 0xe4         | 1
# [1;32m[INFO][0m [1;36m(ID=axi_fifo_scoreboard)[0m [1;34m[time = 25000][0m ==============================================================
# [1;32m[INFO][0m [1;36m(ID=axi_fifo_scoreboard)[0m [1;34m[time = 25000][0m  
# [1;32m[INFO][0m [1;36m(ID=axi_fifo_scoreboard)[0m [1;34m[time = 125000][0m  
# [1;32m[INFO][0m [1;36m(ID=axi_fifo_scoreboard)[0m [1;34m[time = 125000][0m ==============================================================
# [1;32m[INFO][0m [1;36m(ID=axi_fifo_scoreboard)[0m [1;34m[time = 125000][0m FIELD       | ACTUAL       | EXPECTED     | RESULT
# [1;32m[INFO][0m [1;36m(ID=axi_fifo_scoreboard)[0m [1;34m[time = 125000][0m --------------------------------------------------------------
# [1;32m[INFO][0m [1;36m(ID=axi_fifo_scoreboard)[0m [1;34m[time = 125000][0m AW_ID       | 0            | 0            |    MATCH
# [1;32m[INFO][0m [1;36m(ID=axi_fifo_scoreboard)[0m [1;34m[time = 125000][0m AWADDR      | 0x9e8d6468   | 0x9e8d6468   |    MATCH
# [1;32m[INFO][0m [1;36m(ID=axi_fifo_scoreboard)[0m [1;34m[time = 125000][0m AWLEN       | 3            | 3            |    MATCH
# [1;32m[INFO][0m [1;36m(ID=axi_fifo_scoreboard)[0m [1;34m[time = 125000][0m AWSIZE      | 2            | 2            |    MATCH
# [1;32m[INFO][0m [1;36m(ID=axi_fifo_scoreboard)[0m [1;34m[time = 125000][0m AWBURST     | 1            | 1            |    MATCH
# [1;32m[INFO][0m [1;36m(ID=axi_fifo_scoreboard)[0m [1;34m[time = 125000][0m AWLOCK      | 0            | 0            |    MATCH
# [1;32m[INFO][0m [1;36m(ID=axi_fifo_scoreboard)[0m [1;34m[time = 125000][0m AWCACHE     | 0            | 0            |    MATCH
# [1;32m[INFO][0m [1;36m(ID=axi_fifo_scoreboard)[0m [1;34m[time = 125000][0m AWPROT      | 0            | 0            |    MATCH
# [1;32m[INFO][0m [1;36m(ID=axi_fifo_scoreboard)[0m [1;34m[time = 125000][0m ==============================================================
# [1;32m[INFO][0m [1;36m(ID=axi_fifo_scoreboard)[0m [1;34m[time = 125000][0m  
# [1;32m[INFO][0m [1;36m(ID=axi_fifo_scoreboard)[0m [1;34m[time = 155000][0m  
# [1;32m[INFO][0m [1;36m(ID=axi_fifo_scoreboard)[0m [1;34m[time = 155000][0m ==============================================================
# [1;32m[INFO][0m [1;36m(ID=axi_fifo_scoreboard)[0m [1;34m[time = 155000][0m FIELD      | ACTUAL       | EXPECTED     | RESULT
# [1;32m[INFO][0m [1;36m(ID=axi_fifo_scoreboard)[0m [1;34m[time = 155000][0m --------------------------------------------------------------
# [1;32m[INFO][0m [1;36m(ID=axi_fifo_scoreboard)[0m [1;34m[time = 155000][0m W_ID       | 0            | 0            |    MATCH
# [1;32m[INFO][0m [1;36m(ID=axi_fifo_scoreboard)[0m [1;34m[time = 155000][0m BEAT       | 0            | 0            |    MATCH
# [1;32m[INFO][0m [1;36m(ID=axi_fifo_scoreboard)[0m [1;34m[time = 155000][0m WSTRB      | 15           | 15           |    MATCH
# [1;32m[INFO][0m [1;36m(ID=axi_fifo_scoreboard)[0m [1;34m[time = 155000][0m WLAST      | 0            | 0            |    MATCH
# [1;32m[INFO][0m [1;36m(ID=axi_fifo_scoreboard)[0m [1;34m[time = 155000][0m  
# [1;32m[INFO][0m [1;36m(ID=axi_fifo_scoreboard)[0m [1;34m[time = 155000][0m ---------------------------------------------------------------
# [1;32m[INFO][0m [1;36m(ID=axi_fifo_scoreboard)[0m [1;34m[time = 155000][0m BEAT=0               |   BURST_ADDR=0x9e8d6468
# [1;32m[INFO][0m [1;36m(ID=axi_fifo_scoreboard)[0m [1;34m[time = 155000][0m LANE    | ADDRESS    | ACTUAL  | EXPECTED  | WSTRB | RESULT
# [1;32m[INFO][0m [1;36m(ID=axi_fifo_scoreboard)[0m [1;34m[time = 155000][0m ---------------------------------------------------------------
# [1;31m[ERROR][0m [1;36m(ID=axi_fifo_scoreboard)[0m [1;34m[time = 155000][0m LANE[0] | 0x9e8d6468 | 0x0     | 0xbc      | 1     | MISMATCH
# [1;31m[ERROR][0m [1;36m(ID=axi_fifo_scoreboard)[0m [1;34m[time = 155000][0m LANE[1] | 0x9e8d6469 | 0x0     | 0xe3      | 1     | MISMATCH
# [1;31m[ERROR][0m [1;36m(ID=axi_fifo_scoreboard)[0m [1;34m[time = 155000][0m LANE[2] | 0x9e8d646a | 0x53    | 0xd5      | 1     | MISMATCH
# [1;31m[ERROR][0m [1;36m(ID=axi_fifo_scoreboard)[0m [1;34m[time = 155000][0m LANE[3] | 0x9e8d646b | 0xbc    | 0xe4      | 1     | MISMATCH
# [1;32m[INFO][0m [1;36m(ID=axi_fifo_scoreboard)[0m [1;34m[time = 165000][0m  
# [1;32m[INFO][0m [1;36m(ID=axi_fifo_scoreboard)[0m [1;34m[time = 165000][0m ==============================================================
# [1;32m[INFO][0m [1;36m(ID=axi_fifo_scoreboard)[0m [1;34m[time = 165000][0m FIELD      | ACTUAL       | EXPECTED     | RESULT
# [1;32m[INFO][0m [1;36m(ID=axi_fifo_scoreboard)[0m [1;34m[time = 165000][0m --------------------------------------------------------------
# [1;32m[INFO][0m [1;36m(ID=axi_fifo_scoreboard)[0m [1;34m[time = 165000][0m W_ID       | 0            | 0            |    MATCH
# [1;32m[INFO][0m [1;36m(ID=axi_fifo_scoreboard)[0m [1;34m[time = 165000][0m BEAT       | 1            | 1            |    MATCH
# [1;32m[INFO][0m [1;36m(ID=axi_fifo_scoreboard)[0m [1;34m[time = 165000][0m WSTRB      | 15           | 15           |    MATCH
# [1;32m[INFO][0m [1;36m(ID=axi_fifo_scoreboard)[0m [1;34m[time = 165000][0m WLAST      | 0            | 0            |    MATCH
# [1;32m[INFO][0m [1;36m(ID=axi_fifo_scoreboard)[0m [1;34m[time = 165000][0m  
# [1;32m[INFO][0m [1;36m(ID=axi_fifo_scoreboard)[0m [1;34m[time = 165000][0m ---------------------------------------------------------------
# [1;32m[INFO][0m [1;36m(ID=axi_fifo_scoreboard)[0m [1;34m[time = 165000][0m BEAT=1               |   BURST_ADDR=0x9e8d646c
# [1;32m[INFO][0m [1;36m(ID=axi_fifo_scoreboard)[0m [1;34m[time = 165000][0m LANE    | ADDRESS    | ACTUAL  | EXPECTED  | WSTRB | RESULT
# [1;32m[INFO][0m [1;36m(ID=axi_fifo_scoreboard)[0m [1;34m[time = 165000][0m ---------------------------------------------------------------
# [1;31m[ERROR][0m [1;36m(ID=axi_fifo_scoreboard)[0m [1;34m[time = 165000][0m LANE[0] | 0x9e8d646c | 0xe3    | 0xbc      | 1     | MISMATCH
# [1;31m[ERROR][0m [1;36m(ID=axi_fifo_scoreboard)[0m [1;34m[time = 165000][0m LANE[1] | 0x9e8d646d | 0xd5    | 0xe3      | 1     | MISMATCH
# [1;31m[ERROR][0m [1;36m(ID=axi_fifo_scoreboard)[0m [1;34m[time = 165000][0m LANE[2] | 0x9e8d646e | 0xe4    | 0xd5      | 1     | MISMATCH
# [1;31m[ERROR][0m [1;36m(ID=axi_fifo_scoreboard)[0m [1;34m[time = 165000][0m LANE[3] | 0x9e8d646f | 0x0     | 0xe4      | 1     | MISMATCH
# [1;32m[INFO][0m [1;36m(ID=axi_fifo_scoreboard)[0m [1;34m[time = 175000][0m  
# [1;32m[INFO][0m [1;36m(ID=axi_fifo_scoreboard)[0m [1;34m[time = 175000][0m ==============================================================
# [1;32m[INFO][0m [1;36m(ID=axi_fifo_scoreboard)[0m [1;34m[time = 175000][0m FIELD      | ACTUAL       | EXPECTED     | RESULT
# [1;32m[INFO][0m [1;36m(ID=axi_fifo_scoreboard)[0m [1;34m[time = 175000][0m --------------------------------------------------------------
# [1;32m[INFO][0m [1;36m(ID=axi_fifo_scoreboard)[0m [1;34m[time = 175000][0m W_ID       | 0            | 0            |    MATCH
# [1;32m[INFO][0m [1;36m(ID=axi_fifo_scoreboard)[0m [1;34m[time = 175000][0m BEAT       | 2            | 2            |    MATCH
# [1;32m[INFO][0m [1;36m(ID=axi_fifo_scoreboard)[0m [1;34m[time = 175000][0m WSTRB      | 15           | 15           |    MATCH
# [1;32m[INFO][0m [1;36m(ID=axi_fifo_scoreboard)[0m [1;34m[time = 175000][0m WLAST      | 0            | 0            |    MATCH
# [1;32m[INFO][0m [1;36m(ID=axi_fifo_scoreboard)[0m [1;34m[time = 175000][0m  
# [1;32m[INFO][0m [1;36m(ID=axi_fifo_scoreboard)[0m [1;34m[time = 175000][0m ---------------------------------------------------------------
# [1;32m[INFO][0m [1;36m(ID=axi_fifo_scoreboard)[0m [1;34m[time = 175000][0m BEAT=2               |   BURST_ADDR=0x9e8d6470
# [1;32m[INFO][0m [1;36m(ID=axi_fifo_scoreboard)[0m [1;34m[time = 175000][0m LANE    | ADDRESS    | ACTUAL  | EXPECTED  | WSTRB | RESULT
# [1;32m[INFO][0m [1;36m(ID=axi_fifo_scoreboard)[0m [1;34m[time = 175000][0m ---------------------------------------------------------------
# [1;31m[ERROR][0m [1;36m(ID=axi_fifo_scoreboard)[0m [1;34m[time = 175000][0m LANE[0] | 0x9e8d6470 | 0x0     | 0xbc      | 1     | MISMATCH
# [1;31m[ERROR][0m [1;36m(ID=axi_fifo_scoreboard)[0m [1;34m[time = 175000][0m LANE[1] | 0x9e8d6471 | 0x0     | 0xe3      | 1     | MISMATCH
# [1;31m[ERROR][0m [1;36m(ID=axi_fifo_scoreboard)[0m [1;34m[time = 175000][0m LANE[2] | 0x9e8d6472 | 0x0     | 0xd5      | 1     | MISMATCH
# [1;31m[ERROR][0m [1;36m(ID=axi_fifo_scoreboard)[0m [1;34m[time = 175000][0m LANE[3] | 0x9e8d6473 | 0x0     | 0xe4      | 1     | MISMATCH
# [1;32m[INFO][0m [1;36m(ID=axi_fifo_scoreboard)[0m [1;34m[time = 185000][0m  
# [1;32m[INFO][0m [1;36m(ID=axi_fifo_scoreboard)[0m [1;34m[time = 185000][0m ==============================================================
# [1;32m[INFO][0m [1;36m(ID=axi_fifo_scoreboard)[0m [1;34m[time = 185000][0m FIELD      | ACTUAL       | EXPECTED     | RESULT
# [1;32m[INFO][0m [1;36m(ID=axi_fifo_scoreboard)[0m [1;34m[time = 185000][0m --------------------------------------------------------------
# [1;32m[INFO][0m [1;36m(ID=axi_fifo_scoreboard)[0m [1;34m[time = 185000][0m W_ID       | 0            | 0            |    MATCH
# [1;32m[INFO][0m [1;36m(ID=axi_fifo_scoreboard)[0m [1;34m[time = 185000][0m BEAT       | 3            | 3            |    MATCH
# [1;32m[INFO][0m [1;36m(ID=axi_fifo_scoreboard)[0m [1;34m[time = 185000][0m WSTRB      | 15           | 15           |    MATCH
# [1;32m[INFO][0m [1;36m(ID=axi_fifo_scoreboard)[0m [1;34m[time = 185000][0m WLAST      | 1            | 1            |    MATCH
# [1;32m[INFO][0m [1;36m(ID=axi_fifo_scoreboard)[0m [1;34m[time = 185000][0m  
# [1;32m[INFO][0m [1;36m(ID=axi_fifo_scoreboard)[0m [1;34m[time = 185000][0m ---------------------------------------------------------------
# [1;32m[INFO][0m [1;36m(ID=axi_fifo_scoreboard)[0m [1;34m[time = 185000][0m BEAT=3               |   BURST_ADDR=0x9e8d6474
# [1;32m[INFO][0m [1;36m(ID=axi_fifo_scoreboard)[0m [1;34m[time = 185000][0m LANE    | ADDRESS    | ACTUAL  | EXPECTED  | WSTRB | RESULT
# [1;32m[INFO][0m [1;36m(ID=axi_fifo_scoreboard)[0m [1;34m[time = 185000][0m ---------------------------------------------------------------
# [1;31m[ERROR][0m [1;36m(ID=axi_fifo_scoreboard)[0m [1;34m[time = 185000][0m LANE[0] | 0x9e8d6474 | 0x0     | 0xbc      | 1     | MISMATCH
# [1;31m[ERROR][0m [1;36m(ID=axi_fifo_scoreboard)[0m [1;34m[time = 185000][0m LANE[1] | 0x9e8d6475 | 0x0     | 0xe3      | 1     | MISMATCH
# [1;31m[ERROR][0m [1;36m(ID=axi_fifo_scoreboard)[0m [1;34m[time = 185000][0m LANE[2] | 0x9e8d6476 | 0x0     | 0xd5      | 1     | MISMATCH
# [1;31m[ERROR][0m [1;36m(ID=axi_fifo_scoreboard)[0m [1;34m[time = 185000][0m LANE[3] | 0x9e8d6477 | 0x0     | 0xe4      | 1     | MISMATCH
# [1;32m[INFO][0m [1;36m(ID=axi_fifo_scoreboard)[0m [1;34m[time = 185000][0m ---------------------------------------------------------------
# [1;32m[INFO][0m [1;36m(ID=axi_fifo_scoreboard)[0m [1;34m[time = 185000][0m  
# [1;32m[INFO][0m [1;36m(ID=axi_fifo_scoreboard)[0m [1;34m[time = 185000][0m  
# [1;32m[INFO][0m [1;36m(ID=axi_fifo_scoreboard)[0m [1;34m[time = 185000][0m ==============================================================
# [1;32m[INFO][0m [1;36m(ID=axi_fifo_scoreboard)[0m [1;34m[time = 185000][0m FIELD   | VALUE               
# [1;32m[INFO][0m [1;36m(ID=axi_fifo_scoreboard)[0m [1;34m[time = 185000][0m --------------------------------------------------------------
# [1;32m[INFO][0m [1;36m(ID=axi_fifo_scoreboard)[0m [1;34m[time = 185000][0m AR_ID   = 0 (0x0)
# [1;32m[INFO][0m [1;36m(ID=axi_fifo_scoreboard)[0m [1;34m[time = 185000][0m ARADDR  = 0xa4ea7358
# [1;32m[INFO][0m [1;36m(ID=axi_fifo_scoreboard)[0m [1;34m[time = 185000][0m ARLEN   = 1 (0x1)
# [1;32m[INFO][0m [1;36m(ID=axi_fifo_scoreboard)[0m [1;34m[time = 185000][0m ARSIZE  = 1 (0x1)
# [1;32m[INFO][0m [1;36m(ID=axi_fifo_scoreboard)[0m [1;34m[time = 185000][0m ARBURST = 0 (0x0)
# [1;32m[INFO][0m [1;36m(ID=axi_fifo_scoreboard)[0m [1;34m[time = 185000][0m ARLOCK  = 0 (0x0)
# [1;32m[INFO][0m [1;36m(ID=axi_fifo_scoreboard)[0m [1;34m[time = 185000][0m ARCACHE = 0 (0x0)
# [1;32m[INFO][0m [1;36m(ID=axi_fifo_scoreboard)[0m [1;34m[time = 185000][0m ARPROT  = 0 (0x0)
# [1;32m[INFO][0m [1;36m(ID=axi_fifo_scoreboard)[0m [1;34m[time = 185000][0m ==============================================================
# [1;32m[INFO][0m [1;36m(ID=axi_fifo_scoreboard)[0m [1;34m[time = 185000][0m  
# [1;32m[INFO][0m [1;36m(ID=AXI4_SLAVE_DRIVER_BFM)[0m [1;34m[time = 205000][0m INSIDE WRITE DATA CHANNEL
# PACKET INPUT SIZE IS 2
# ------------------------------------------------------------
# Name           Type           Size  Value                   
# ------------------------------------------------------------
# axi4_slave_tx  axi4_slave_tx  -     @1993                   
#   tx_type      string         5     WRITE                   
#   awid         string         6     AWID_0                  
#   awaddr       integral       32    'h9e8d6468              
#   awlen        integral       4     'd3                     
#   awsize       string         13    WRITE_4_BYTES           
#   awburst      string         10    WRITE_INCR              
#   awlock       string         19    WRITE_NORMAL_ACCESS     
#   awcache      string         16    WRITE_BUFFERABLE        
#   awprot       string         24    WRITE_NORMAL_SECURE_DATA
#   awqos        integral       4     'h0                     
#   wdata[0]     integral       32    'hbc530000              
#   wdata[1]     integral       32    'he4d5e3                
#   wstrb[0]     integral       4     'hf                     
#   wstrb[1]     integral       4     'hf                     
#   wlast        integral       1     'd0                     
#   wuser        integral       4     'd0                     
#   bid          string         5     BID_0                   
#   bresp        string         12    WRITE_SLVERR            
#   buser        integral       4     'd0                     
# ------------------------------------------------------------
# [1;32m[INFO][0m [1;36m(ID=SLAVE_DRIVER_RADDR_PHASE)[0m [1;34m[time = 255000][0m outside of arvalid
# [1;32m[INFO][0m [1;36m(ID=axi_fifo_scoreboard)[0m [1;34m[time = 265000][0m  
# [1;32m[INFO][0m [1;36m(ID=axi_fifo_scoreboard)[0m [1;34m[time = 265000][0m ==============================================================
# [1;32m[INFO][0m [1;36m(ID=axi_fifo_scoreboard)[0m [1;34m[time = 265000][0m FIELD       | ACTUAL       | EXPECTED     | RESULT
# [1;32m[INFO][0m [1;36m(ID=axi_fifo_scoreboard)[0m [1;34m[time = 265000][0m --------------------------------------------------------------
# [1;32m[INFO][0m [1;36m(ID=axi_fifo_scoreboard)[0m [1;34m[time = 265000][0m AR_ID       | 0            | 0            |    MATCH
# [1;32m[INFO][0m [1;36m(ID=axi_fifo_scoreboard)[0m [1;34m[time = 265000][0m ARADDR      | 0xa4ea7358   | 0xa4ea7358   |    MATCH
# [1;32m[INFO][0m [1;36m(ID=axi_fifo_scoreboard)[0m [1;34m[time = 265000][0m ARLEN       | 1            | 1            |    MATCH
# [1;32m[INFO][0m [1;36m(ID=axi_fifo_scoreboard)[0m [1;34m[time = 265000][0m ARSIZE      | 1            | 1            |    MATCH
# [1;32m[INFO][0m [1;36m(ID=axi_fifo_scoreboard)[0m [1;34m[time = 265000][0m ARBURST     | 0            | 0            |    MATCH
# [1;32m[INFO][0m [1;36m(ID=axi_fifo_scoreboard)[0m [1;34m[time = 265000][0m ARLOCK      | 0            | 0            |    MATCH
# [1;32m[INFO][0m [1;36m(ID=axi_fifo_scoreboard)[0m [1;34m[time = 265000][0m ARCACHE     | 0            | 0            |    MATCH
# [1;32m[INFO][0m [1;36m(ID=axi_fifo_scoreboard)[0m [1;34m[time = 265000][0m ARPROT      | 0            | 0            |    MATCH
# [1;32m[INFO][0m [1;36m(ID=axi_fifo_scoreboard)[0m [1;34m[time = 265000][0m ==============================================================
# [1;32m[INFO][0m [1;36m(ID=axi_fifo_scoreboard)[0m [1;34m[time = 265000][0m  
# [1;32m[INFO][0m [1;36m(ID=SLAVE_DRIVER_RADDR_PHASE)[0m [1;34m[time = 275000][0m outside of arvalid
# [1;32m[INFO][0m [1;36m(ID=axi4_slave_monitor_proxy)[0m [1;34m[time = 285000][0m Packet received from axi4_slave_read_data is 
#  -----------------------------------------------------------------
# Name                 Type           Size  Value                  
# -----------------------------------------------------------------
# tx                   axi4_slave_tx  -     @2074                  
#   tx_type            string         4     READ                   
#   arid               string         6     ARID_0                 
#   araddr             integral       32    'h0                    
#   arlen              integral       4     'd0                    
#   arsize             string         11    READ_1_BYTE            
#   arburst            string         10    READ_FIXED             
#   arlock             string         18    READ_NORMAL_ACCESS     
#   arcache            string         15    READ_BUFFERABLE        
#   arprot             string         23    READ_NORMAL_SECURE_DATA
#   arqos              integral       4     'h0                    
#   rid                string         5     RID_0                  
#   rresp              string         11    READ_SLVERR            
#   ruser              integral       4     'h0                    
#   no_of_wait_states  integral       32    'h0                    
# -----------------------------------------------------------------
# 
# [1;32m[INFO][0m [1;36m(ID=axi4_slave_monitor_proxy)[0m [1;34m[time = 305000][0m Packet received from axi4_slave_read_data is 
#  -----------------------------------------------------------------
# Name                 Type           Size  Value                  
# -----------------------------------------------------------------
# tx                   axi4_slave_tx  -     @2102                  
#   tx_type            string         4     READ                   
#   arid               string         6     ARID_0                 
#   araddr             integral       32    'h0                    
#   arlen              integral       4     'd0                    
#   arsize             string         11    READ_1_BYTE            
#   arburst            string         10    READ_FIXED             
#   arlock             string         18    READ_NORMAL_ACCESS     
#   arcache            string         15    READ_BUFFERABLE        
#   arprot             string         23    READ_NORMAL_SECURE_DATA
#   arqos              integral       4     'h0                    
#   rid                string         5     RID_0                  
#   rresp              string         11    READ_SLVERR            
#   ruser              integral       4     'h0                    
#   no_of_wait_states  integral       32    'h0                    
# -----------------------------------------------------------------
# 
# [1;32m[INFO][0m [1;36m(ID=axi_fifo_scoreboard)[0m [1;34m[time = 335000][0m =========================================
# [1;32m[INFO][0m [1;36m(ID=axi_fifo_scoreboard)[0m [1;34m[time = 335000][0m Total Packets : 2
# [1;32m[INFO][0m [1;36m(ID=axi_fifo_scoreboard)[0m [1;34m[time = 335000][0m Pass Count    : 0
# [1;32m[INFO][0m [1;36m(ID=axi_fifo_scoreboard)[0m [1;34m[time = 335000][0m Fail Count    : 0
# [1;32m[INFO][0m [1;36m(ID=axi_fifo_scoreboard)[0m [1;34m[time = 335000][0m =========================================
# [1;32m[INFO][0m [1;36m(ID=axi4_slave_coverage)[0m [1;34m[time = 335000][0m AXI4 Slave Agent Coverage = 33.28 %
# [1;32m[INFO][0m [1;36m(ID=cpu_subscriber    )[0m [1;34m[time = 335000][0m Input Coverage = 62.50 %
# [1;32m[INFO][0m [1;36m(ID=cpu_subscriber    )[0m [1;34m[time = 335000][0m Output Coverage = 50.00 %
# 
# --- UVM Report Summary ---
# 
# ** Report counts by severity
# UVM_INFO :  180
# UVM_WARNING :    0
# UVM_ERROR :   16
# UVM_FATAL :    0
# ** Report counts by id
# [AXI4_SLAVE_DRIVER_BFM]     4
# [SLAVE_DRIVER_RADDR_PHASE]     2
# [axi4_slave_coverage]     1
# [axi4_slave_monitor_proxy]     2
# [axi_fifo_scoreboard]   185
# [cpu_subscriber]     2
# ** Note: $finish    : /tools/mentor/questasim_10.6c/questasim/linux/../verilog_src/uvm-1.1d/src/base/uvm_root.svh(430)
#    Time: 335 ns  Iteration: 67  Instance: /top
# Saving coverage database on exit...
# End time: 13:29:59 on Aug 15,2026, Elapsed time: 0:00:04
# Errors: 0, Warnings: 64
